T5514 41663:342 SEGGER J-Link V6.46 Log File (0000ms, 138553ms total)
T5514 41663:342 DLL Compiled: May 23 2019 17:49:56 (0000ms, 138553ms total)
T5514 41663:342 Logging started @ 2022-04-21 23:13 (0000ms, 138553ms total)
T5514 41663:342 JLINK_SetWarnOutHandler(...) (0000ms, 138553ms total)
T5514 41663:342 JLINK_OpenEx(...)
Firmware: J-Link OB-STM32F072-CortexM compiled Jan  7 2019 14:09:37
Hardware: V1.00
Feature(s): GDB, RDI, FlashBP, FlashDL, JFlash, RDDI
TELNET listener socket opened on port 19021Device "CORTEX-M0" selected.WEBSRV 
Starting webserver (0074ms, 138627ms total)
T5514 41663:342 WEBSRV Webserver running on local port 19080 (0074ms, 138627ms total)
T5514 41663:342   returns O.K. (0074ms, 138627ms total)
T5514 41663:416 JLINK_GetEmuCaps()  returns 0xB8EA5A33 (0000ms, 138627ms total)
T5514 41663:416 JLINK_TIF_GetAvailable(...) (0000ms, 138627ms total)
T5514 41663:417 JLINK_SetErrorOutHandler(...) (0000ms, 138627ms total)
T5514 41663:417 JLINK_ExecCommand("ProjectFile = "E:\git_project\github\SDK_M4\xinc_SDK\XC6xx_ble_sdk\Proj\spi_flash_demo\mdk\JLinkSettings.ini"", ...). Device "CORTEX-M0" selected.  returns 0x00 (0005ms, 138632ms total)
T5514 41663:426 JLINK_ExecCommand("Device = ARMCM0", ...). Device "CORTEX-M0" selected.  returns 0x00 (0004ms, 138636ms total)
T5514 41663:430 JLINK_ExecCommand("DisableConnectionTimeout", ...).   returns 0x01 (0000ms, 138636ms total)
T5514 41663:430 JLINK_GetHardwareVersion()  returns 0x2710 (0000ms, 138636ms total)
T5514 41663:430 JLINK_GetDLLVersion()  returns 64600 (0000ms, 138636ms total)
T5514 41663:430 JLINK_GetFirmwareString(...) (0000ms, 138636ms total)
T5514 41663:445 JLINK_GetDLLVersion()  returns 64600 (0000ms, 138636ms total)
T5514 41663:445 JLINK_GetCompileDateTime() (0000ms, 138636ms total)
T5514 41663:448 JLINK_GetFirmwareString(...) (0000ms, 138636ms total)
T5514 41663:452 JLINK_GetHardwareVersion()  returns 0x2710 (0000ms, 138636ms total)
T5514 41663:465 JLINK_TIF_Select(JLINKARM_TIF_SWD)  returns 0x00 (0000ms, 138636ms total)
T5514 41663:466 JLINK_SetSpeed(5000) (0000ms, 138636ms total)
T5514 41663:466 JLINK_GetId() >0x10B TIF>Found SW-DP with ID 0x0BB11477 >0x0D TIF> >0x28 TIF> >0x0D TIF> >0x28 TIF> >0x0D TIF> >0x28 TIF> >0x0D TIF> >0x28 TIF> >0x0D TIF> >0x21 TIF> >0x0D TIF> >0x28 TIF>Scanning AP map to find all available APs >0x0D TIF> >0x28 TIF> >0x0D TIF> >0x21 TIF> >0x0D TIF> >0x21 TIF> >0x0D TIF> >0x28 TIF> >0x0D TIF> >0x21 TIF> >0x0D TIF> >0x21 TIF>AP[1]: Stopped AP scan as end of AP map has been reachedAP[0]: AHB-AP (IDR: 0x04770021)Iterating through AP map to find AHB-AP to use
 >0x42 TIF> >0x28 TIF> >0x0D TIF> >0x28 TIF> >0x0D TIF> >0x21 TIF> >0x0D TIF> >0x21 TIF> >0x42 TIF> >0x28 TIF> >0x0D TIF> >0x28 TIF> >0x0D TIF> >0x28 TIF> >0x0D TIF> >0x21 TIF> >0x0D TIF> >0x21 TIF>AP[0]: Core foundAP[0]: AHB-AP ROM base: 0xE00FF000 >0x0D TIF> >0x28 TIF> >0x0D TIF> >0x28 TIF> >0x0D TIF> >0x28 TIF> >0x0D TIF> >0x21 TIF> >0x0D TIF> >0x21 TIF>CPUID register: 0x410CC200. Implementer code: 0x41 (ARM)Found Cortex-M0 r0p0, Little endian. -- Max. mem block: 0x000022B8
 -- CPU_ReadMem(4 bytes @ 0xE000EDF0) -- CPU_WriteMem(4 bytes @ 0xE000EDF0) -- CPU_ReadMem(4 bytes @ 0xE0002000)FPUnit: 4 code (BP) slots and 0 literal slots -- CPU_ReadMem(4 bytes @ 0xE000EDFC) -- CPU_WriteMem(4 bytes @ 0xE000EDFC) -- CPU_ReadMem(4 bytes @ 0xE0001000) -- CPU_WriteMem(4 bytes @ 0xE0001000)CoreSight components:ROMTbl[0] @ E00FF000 -- CPU_ReadMem(16 bytes @ 0xE00FF000) -- CPU_ReadMem(16 bytes @ 0xE000EFF0) -- CPU_ReadMem(16 bytes @ 0xE000EFE0)
ROMTbl[0][0]: E000E000, CID: B105E00D, PID: 000BB008 SCS -- CPU_ReadMem(16 bytes @ 0xE0001FF0) -- CPU_ReadMem(16 bytes @ 0xE0001FE0)ROMTbl[0][1]: E0001000, CID: B105E00D, PID: 000BB00A DWT -- CPU_ReadMem(16 bytes @ 0xE0002FF0) -- CPU_ReadMem(16 bytes @ 0xE0002FE0)ROMTbl[0][2]: E0002000, CID: B105E00D, PID: 000BB00B FPB >0x0D TIF> >0x21 TIF>  returns 0x0BB11477 (0203ms, 138839ms total)
T5514 41663:669 JLINK_GetDLLVersion()  returns 64600 (0000ms, 138839ms total)
T5514 41663:669 JLINK_CORE_GetFound()  returns 0x60000FF (0000ms, 138839ms total)
T5514 41663:669 JLINK_GetDebugInfo(0x100 = JLINKARM_ROM_TABLE_ADDR_INDEX) -- Value=0xE00FF000  returns 0x00 (0000ms, 138839ms total)
T5514 41663:672 JLINK_GetDebugInfo(0x100 = JLINKARM_ROM_TABLE_ADDR_INDEX) -- Value=0xE00FF000  returns 0x00 (0001ms, 138840ms total)
T5514 41663:673 JLINK_GetDebugInfo(0x101 = JLINKARM_DEBUG_INFO_ETM_ADDR_INDEX) -- Value=0x00000000  returns 0x00 (0000ms, 138840ms total)
T5514 41663:673 JLINK_ReadMemEx(0xE0041FF0, 0x0010 Bytes, ..., Flags = 0x02000004) -- CPU_ReadMem(16 bytes @ 0xE0041FF0) - Data: 00 00 00 00 00 00 00 00 00 00 00 00 00 00 00 00  returns 0x10 (0000ms, 138840ms total)
T5514 41663:673 JLINK_GetDebugInfo(0x102 = JLINKARM_DEBUG_INFO_MTB_ADDR_INDEX) -- Value=0x00000000  returns 0x00 (0000ms, 138840ms total)
T5514 41663:673 JLINK_GetDebugInfo(0x103 = JLINKARM_DEBUG_INFO_TPIU_ADDR_INDEX) -- Value=0x00000000  returns 0x00 (0000ms, 138840ms total)
T5514 41663:673 JLINK_ReadMemEx(0xE0040FF0, 0x0010 Bytes, ..., Flags = 0x02000004) -- CPU_ReadMem(16 bytes @ 0xE0040FF0) - Data: 00 00 00 00 00 00 00 00 00 00 00 00 00 00 00 00  returns 0x10 (0001ms, 138841ms total)
T5514 41663:674 JLINK_GetDebugInfo(0x104 = JLINKARM_DEBUG_INFO_ITM_ADDR_INDEX) -- Value=0xE0000000  returns 0x00 (0000ms, 138841ms total)
T5514 41663:674 JLINK_GetDebugInfo(0x105 = JLINKARM_DEBUG_INFO_DWT_ADDR_INDEX) -- Value=0xE0001000  returns 0x00 (0000ms, 138841ms total)
T5514 41663:674 JLINK_GetDebugInfo(0x106 = JLINKARM_DEBUG_INFO_FPB_ADDR_INDEX) -- Value=0xE0002000  returns 0x00 (0000ms, 138841ms total)
T5514 41663:674 JLINK_GetDebugInfo(0x107 = JLINKARM_DEBUG_INFO_NVIC_ADDR_INDEX) -- Value=0xE000E000  returns 0x00 (0000ms, 138841ms total)
T5514 41663:674 JLINK_GetDebugInfo(0x10C = JLINKARM_DEBUG_INFO_DBG_ADDR_INDEX) -- Value=0xE000EDF0  returns 0x00 (0000ms, 138841ms total)
T5514 41663:674 JLINK_GetDebugInfo(0x01 = Unknown) -- Value=0x00000000  returns 0x00 (0000ms, 138841ms total)
T5514 41663:674 JLINK_ReadMemU32(0xE000ED00, 0x0001 Items, ...) -- CPU_ReadMem(4 bytes @ 0xE000ED00) - Data: 00 C2 0C 41  returns 1 (0000ms, 138841ms total)
T5514 41663:674 JLINK_GetDebugInfo(0x10F = JLINKARM_DEBUG_INFO_HAS_CORTEX_M_SECURITY_EXT_INDEX) -- Value=0x00000000  returns 0x00 (0000ms, 138841ms total)
T5514 41663:674 JLINK_SetResetType(JLINKARM_CM3_RESET_TYPE_NORMAL)  returns JLINKARM_CM3_RESET_TYPE_NORMAL (0000ms, 138841ms total)
T5514 41663:674 JLINK_Reset() -- CPU is running -- CPU_WriteMem(4 bytes @ 0xE000EDF0) -- CPU is running -- CPU_WriteMem(4 bytes @ 0xE000EDFC)Reset: Halt core after reset via DEMCR.VC_CORERESET. >0x35 TIF>Reset: Reset device via AIRCR.SYSRESETREQ. -- CPU is running -- CPU_WriteMem(4 bytes @ 0xE000ED0C) >0x0D TIF> >0x28 TIF> -- CPU_ReadMem(4 bytes @ 0xE000EDF0) -- CPU_ReadMem(4 bytes @ 0xE000EDF0) -- CPU_ReadMem(4 bytes @ 0xE000EDF0) -- CPU_ReadMem(4 bytes @ 0xE000EDF0) -- CPU_ReadMem(4 bytes @ 0xE000EDF0)
 -- CPU_ReadMem(4 bytes @ 0xE000EDF0) -- CPU_ReadMem(4 bytes @ 0xE000EDF0) -- CPU_ReadMem(4 bytes @ 0xE000EDF0) -- CPU_ReadMem(4 bytes @ 0xE000EDF0) -- CPU_ReadMem(4 bytes @ 0xE000EDF0) -- CPU_ReadMem(4 bytes @ 0xE000EDF0) -- CPU_ReadMem(4 bytes @ 0xE000EDF0) -- CPU_ReadMem(4 bytes @ 0xE000EDF0) -- CPU_ReadMem(4 bytes @ 0xE000EDF0) -- CPU_ReadMem(4 bytes @ 0xE000EDF0) -- CPU_ReadMem(4 bytes @ 0xE000EDF0) -- CPU_ReadMem(4 bytes @ 0xE000EDF0) -- CPU_ReadMem(4 bytes @ 0xE000EDF0)
 -- CPU_ReadMem(4 bytes @ 0xE000EDF0) -- CPU_ReadMem(4 bytes @ 0xE000EDF0) -- CPU_ReadMem(4 bytes @ 0xE000EDF0) -- CPU_ReadMem(4 bytes @ 0xE000EDF0) -- CPU_ReadMem(4 bytes @ 0xE000EDF0) -- CPU_ReadMem(4 bytes @ 0xE000EDF0) -- CPU_ReadMem(4 bytes @ 0xE000EDF0) -- CPU_ReadMem(4 bytes @ 0xE000EDF0) -- CPU_ReadMem(4 bytes @ 0xE000EDF0) -- CPU_ReadMem(4 bytes @ 0xE000EDF0) -- CPU_ReadMem(4 bytes @ 0xE000EDF0) -- CPU_ReadMem(4 bytes @ 0xE000EDF0) -- CPU_ReadMem(4 bytes @ 0xE000EDF0)
 -- CPU_ReadMem(4 bytes @ 0xE000EDF0) -- CPU_ReadMem(4 bytes @ 0xE000EDF0) -- CPU_ReadMem(4 bytes @ 0xE000EDF0) -- CPU_ReadMem(4 bytes @ 0xE000EDF0) -- CPU_ReadMem(4 bytes @ 0xE000EDF0) -- CPU_ReadMem(4 bytes @ 0xE000EDF0) -- CPU_ReadMem(4 bytes @ 0xE000EDF0) -- CPU_ReadMem(4 bytes @ 0xE000EDF0) -- CPU_ReadMem(4 bytes @ 0xE000EDF0) -- CPU_ReadMem(4 bytes @ 0xE000EDF0) -- CPU_ReadMem(4 bytes @ 0xE000EDF0) -- CPU_ReadMem(4 bytes @ 0xE000EDF0) -- CPU_ReadMem(4 bytes @ 0xE000EDF0)
 -- CPU_ReadMem(4 bytes @ 0xE000EDF0) -- CPU_ReadMem(4 bytes @ 0xE000EDF0) -- CPU_ReadMem(4 bytes @ 0xE000EDF0) -- CPU_ReadMem(4 bytes @ 0xE000EDF0) -- CPU_ReadMem(4 bytes @ 0xE000EDF0) -- CPU_ReadMem(4 bytes @ 0xE000EDF0) -- CPU_ReadMem(4 bytes @ 0xE000EDF0) -- CPU_ReadMem(4 bytes @ 0xE000EDF0) -- CPU_ReadMem(4 bytes @ 0xE000EDF0) -- CPU_ReadMem(4 bytes @ 0xE000EDF0) -- CPU_ReadMem(4 bytes @ 0xE000EDF0) -- CPU_ReadMem(4 bytes @ 0xE000EDF0) -- CPU_ReadMem(4 bytes @ 0xE000EDF0)
 -- CPU_ReadMem(4 bytes @ 0xE000EDF0) -- CPU_ReadMem(4 bytes @ 0xE000EDF0) -- CPU_ReadMem(4 bytes @ 0xE000EDF0) -- CPU_ReadMem(4 bytes @ 0xE000EDF0) -- CPU_ReadMem(4 bytes @ 0xE000EDF0) -- CPU_ReadMem(4 bytes @ 0xE000EDF0) -- CPU_ReadMem(4 bytes @ 0xE000EDF0) -- CPU_ReadMem(4 bytes @ 0xE000EDF0) -- CPU_ReadMem(4 bytes @ 0xE000EDF0) -- CPU_ReadMem(4 bytes @ 0xE000EDF0) -- CPU_ReadMem(4 bytes @ 0xE000EDF0) -- CPU_ReadMem(4 bytes @ 0xE000EDF0) -- CPU_ReadMem(4 bytes @ 0xE000EDF0)
 -- CPU_ReadMem(4 bytes @ 0xE000EDF0) -- CPU_ReadMem(4 bytes @ 0xE000EDF0) -- CPU_ReadMem(4 bytes @ 0xE000EDF0) -- CPU_ReadMem(4 bytes @ 0xE000EDF0) -- CPU_ReadMem(4 bytes @ 0xE000EDF0) -- CPU_ReadMem(4 bytes @ 0xE000EDF0) -- CPU_ReadMem(4 bytes @ 0xE000EDF0) -- CPU_ReadMem(4 bytes @ 0xE000EDF0) -- CPU_ReadMem(4 bytes @ 0xE000EDF0) -- CPU_ReadMem(4 bytes @ 0xE000EDF0) -- CPU_ReadMem(4 bytes @ 0xE000EDF0) -- CPU_ReadMem(4 bytes @ 0xE000EDF0) -- CPU_ReadMem(4 bytes @ 0xE000EDF0)
 -- CPU_ReadMem(4 bytes @ 0xE000EDF0) -- CPU_ReadMem(4 bytes @ 0xE000EDF0) -- CPU_ReadMem(4 bytes @ 0xE000EDF0) -- CPU_ReadMem(4 bytes @ 0xE000EDF0) -- CPU_ReadMem(4 bytes @ 0xE000EDF0) -- CPU_ReadMem(4 bytes @ 0xE000EDF0) -- CPU_ReadMem(4 bytes @ 0xE000EDF0) -- CPU_ReadMem(4 bytes @ 0xE000EDF0) -- CPU_ReadMem(4 bytes @ 0xE000EDF0) -- CPU_ReadMem(4 bytes @ 0xE000EDF0) -- CPU_ReadMem(4 bytes @ 0xE000EDF0) -- CPU_ReadMem(4 bytes @ 0xE000EDF0) -- CPU_ReadMem(4 bytes @ 0xE000EDF0)
 -- CPU_ReadMem(4 bytes @ 0xE000EDF0) -- CPU_ReadMem(4 bytes @ 0xE000EDF0) -- CPU_ReadMem(4 bytes @ 0xE000EDF0) -- CPU_ReadMem(4 bytes @ 0xE000EDF0) -- CPU_ReadMem(4 bytes @ 0xE000EDF0) -- CPU_ReadMem(4 bytes @ 0xE000EDF0) -- CPU_ReadMem(4 bytes @ 0xE000EDF0) -- CPU_ReadMem(4 bytes @ 0xE000EDF0) -- CPU_ReadMem(4 bytes @ 0xE000EDF0) -- CPU_ReadMem(4 bytes @ 0xE000EDF0) -- CPU_ReadMem(4 bytes @ 0xE000EDF0) -- CPU_ReadMem(4 bytes @ 0xE000EDF0) -- CPU_ReadMem(4 bytes @ 0xE000EDF0)
 -- CPU_ReadMem(4 bytes @ 0xE000EDF0) -- CPU_ReadMem(4 bytes @ 0xE000EDF0) -- CPU_ReadMem(4 bytes @ 0xE000EDF0) -- CPU_ReadMem(4 bytes @ 0xE000EDF0) -- CPU_ReadMem(4 bytes @ 0xE000EDF0) -- CPU_ReadMem(4 bytes @ 0xE000EDF0) -- CPU_ReadMem(4 bytes @ 0xE000EDF0) -- CPU_ReadMem(4 bytes @ 0xE000EDF0) -- CPU_ReadMem(4 bytes @ 0xE000EDF0) -- CPU_ReadMem(4 bytes @ 0xE000EDF0) -- CPU_ReadMem(4 bytes @ 0xE000EDF0) -- CPU_ReadMem(4 bytes @ 0xE000EDF0) -- CPU_ReadMem(4 bytes @ 0xE000EDF0)
 -- CPU_ReadMem(4 bytes @ 0xE000EDF0) -- CPU_ReadMem(4 bytes @ 0xE000EDF0) -- CPU_ReadMem(4 bytes @ 0xE000EDF0) -- CPU_ReadMem(4 bytes @ 0xE000EDF0) -- CPU_ReadMem(4 bytes @ 0xE000EDF0) -- CPU_ReadMem(4 bytes @ 0xE000EDF0) -- CPU_ReadMem(4 bytes @ 0xE000EDF0) -- CPU_ReadMem(4 bytes @ 0xE000EDF0) -- CPU_ReadMem(4 bytes @ 0xE000EDF0) -- CPU_ReadMem(4 bytes @ 0xE000EDF0) -- CPU_ReadMem(4 bytes @ 0xE000EDF0) -- CPU_ReadMem(4 bytes @ 0xE000EDF0) -- CPU_ReadMem(4 bytes @ 0xE000EDF0)
 -- CPU_ReadMem(4 bytes @ 0xE000EDF0) -- CPU_ReadMem(4 bytes @ 0xE000EDF0) -- CPU_ReadMem(4 bytes @ 0xE000EDF0) -- CPU_ReadMem(4 bytes @ 0xE000EDF0) -- CPU_ReadMem(4 bytes @ 0xE000EDF0) -- CPU_ReadMem(4 bytes @ 0xE000EDF0) -- CPU_ReadMem(4 bytes @ 0xE000EDF0) -- CPU_ReadMem(4 bytes @ 0xE000EDF0) -- CPU_ReadMem(4 bytes @ 0xE000EDF0) -- CPU_ReadMem(4 bytes @ 0xE000EDF0) -- CPU_ReadMem(4 bytes @ 0xE000EDF0) -- CPU_ReadMem(4 bytes @ 0xE000EDF0) -- CPU_ReadMem(4 bytes @ 0xE000EDF0)
 -- CPU_ReadMem(4 bytes @ 0xE000EDF0) -- CPU_ReadMem(4 bytes @ 0xE000EDF0) -- CPU_ReadMem(4 bytes @ 0xE000EDF0) -- CPU_ReadMem(4 bytes @ 0xE000EDF0) -- CPU_ReadMem(4 bytes @ 0xE000EDF0) -- CPU_ReadMem(4 bytes @ 0xE000EDF0) -- CPU_ReadMem(4 bytes @ 0xE000EDF0) -- CPU_ReadMem(4 bytes @ 0xE000EDF0) -- CPU_ReadMem(4 bytes @ 0xE000EDF0) -- CPU_ReadMem(4 bytes @ 0xE000EDF0) -- CPU_ReadMem(4 bytes @ 0xE000EDF0) -- CPU_ReadMem(4 bytes @ 0xE000EDF0) -- CPU_ReadMem(4 bytes @ 0xE000EDF0)
 -- CPU_ReadMem(4 bytes @ 0xE000EDF0) -- CPU_ReadMem(4 bytes @ 0xE000EDF0) -- CPU_ReadMem(4 bytes @ 0xE000EDF0) -- CPU_ReadMem(4 bytes @ 0xE000EDF0) -- CPU_ReadMem(4 bytes @ 0xE000EDF0) -- CPU_ReadMem(4 bytes @ 0xE000EDF0) -- CPU_ReadMem(4 bytes @ 0xE000EDF0) -- CPU_ReadMem(4 bytes @ 0xE000EDF0) -- CPU_ReadMem(4 bytes @ 0xE000EDF0) -- CPU_ReadMem(4 bytes @ 0xE000EDF0) -- CPU_ReadMem(4 bytes @ 0xE000EDF0) -- CPU_ReadMem(4 bytes @ 0xE000EDF0) -- CPU_ReadMem(4 bytes @ 0xE000EDF0)
 -- CPU_ReadMem(4 bytes @ 0xE000EDF0) -- CPU_ReadMem(4 bytes @ 0xE000EDF0) -- CPU_ReadMem(4 bytes @ 0xE000EDF0) -- CPU_ReadMem(4 bytes @ 0xE000EDF0) -- CPU_ReadMem(4 bytes @ 0xE000EDF0) -- CPU_ReadMem(4 bytes @ 0xE000EDF0) -- CPU_ReadMem(4 bytes @ 0xE000EDF0) -- CPU_ReadMem(4 bytes @ 0xE000EDF0) -- CPU_ReadMem(4 bytes @ 0xE000EDF0) -- CPU_ReadMem(4 bytes @ 0xE000EDF0) -- CPU_ReadMem(4 bytes @ 0xE000EDF0) -- CPU_ReadMem(4 bytes @ 0xE000EDF0) -- CPU_ReadMem(4 bytes @ 0xE000EDF0)
 -- CPU_ReadMem(4 bytes @ 0xE000EDF0) -- CPU_ReadMem(4 bytes @ 0xE000EDF0) -- CPU_ReadMem(4 bytes @ 0xE000EDF0) -- CPU_ReadMem(4 bytes @ 0xE000EDF0) -- CPU_ReadMem(4 bytes @ 0xE000EDF0) -- CPU_ReadMem(4 bytes @ 0xE000EDF0) -- CPU_ReadMem(4 bytes @ 0xE000EDF0) -- CPU_ReadMem(4 bytes @ 0xE000EDF0) -- CPU_ReadMem(4 bytes @ 0xE000EDF0) -- CPU_ReadMem(4 bytes @ 0xE000EDF0) -- CPU_ReadMem(4 bytes @ 0xE000EDF0) -- CPU_ReadMem(4 bytes @ 0xE000EDF0) -- CPU_ReadMem(4 bytes @ 0xE000EDF0)
 -- CPU_ReadMem(4 bytes @ 0xE000EDF0) -- CPU_ReadMem(4 bytes @ 0xE000EDF0) -- CPU_ReadMem(4 bytes @ 0xE000EDF0) -- CPU_ReadMem(4 bytes @ 0xE000EDF0) -- CPU_ReadMem(4 bytes @ 0xE000EDF0) -- CPU_ReadMem(4 bytes @ 0xE000EDF0) -- CPU_ReadMem(4 bytes @ 0xE000EDF0) -- CPU_ReadMem(4 bytes @ 0xE000EDF0) -- CPU_ReadMem(4 bytes @ 0xE000EDF0) -- CPU_ReadMem(4 bytes @ 0xE000EDF0) -- CPU_ReadMem(4 bytes @ 0xE000EDF0) -- CPU_ReadMem(4 bytes @ 0xE000EDF0) -- CPU_ReadMem(4 bytes @ 0xE000EDF0)
 -- CPU_ReadMem(4 bytes @ 0xE000EDF0) -- CPU_ReadMem(4 bytes @ 0xE000EDF0) -- CPU_ReadMem(4 bytes @ 0xE000EDF0) -- CPU_ReadMem(4 bytes @ 0xE000EDF0) -- CPU_ReadMem(4 bytes @ 0xE000EDF0) -- CPU_ReadMem(4 bytes @ 0xE000EDF0) -- CPU_ReadMem(4 bytes @ 0xE000EDF0) -- CPU_ReadMem(4 bytes @ 0xE000EDF0) -- CPU_ReadMem(4 bytes @ 0xE000EDF0) -- CPU_ReadMem(4 bytes @ 0xE000EDF0) -- CPU_ReadMem(4 bytes @ 0xE000EDF0) -- CPU_ReadMem(4 bytes @ 0xE000EDF0) -- CPU_ReadMem(4 bytes @ 0xE000EDF0)
 -- CPU_ReadMem(4 bytes @ 0xE000EDF0) -- CPU_ReadMem(4 bytes @ 0xE000EDF0) -- CPU_ReadMem(4 bytes @ 0xE000EDF0) -- CPU_ReadMem(4 bytes @ 0xE000EDF0) -- CPU_ReadMem(4 bytes @ 0xE000EDF0) -- CPU_ReadMem(4 bytes @ 0xE000EDF0) -- CPU_ReadMem(4 bytes @ 0xE000EDF0) -- CPU_ReadMem(4 bytes @ 0xE000EDF0) -- CPU_ReadMem(4 bytes @ 0xE000EDF0) -- CPU_ReadMem(4 bytes @ 0xE000EDF0) -- CPU_ReadMem(4 bytes @ 0xE000EDF0) -- CPU_ReadMem(4 bytes @ 0xE000EDF0) -- CPU_ReadMem(4 bytes @ 0xE000EDF0)
 -- CPU_ReadMem(4 bytes @ 0xE000EDF0) -- CPU_ReadMem(4 bytes @ 0xE000EDF0) -- CPU_ReadMem(4 bytes @ 0xE000EDF0) -- CPU_ReadMem(4 bytes @ 0xE000EDF0) -- CPU_ReadMem(4 bytes @ 0xE000EDF0) -- CPU_ReadMem(4 bytes @ 0xE000EDF0) -- CPU_ReadMem(4 bytes @ 0xE000EDF0) -- CPU_ReadMem(4 bytes @ 0xE000EDF0) -- CPU_ReadMem(4 bytes @ 0xE000EDF0) -- CPU_ReadMem(4 bytes @ 0xE000EDF0) -- CPU_ReadMem(4 bytes @ 0xE000EDF0) -- CPU_ReadMem(4 bytes @ 0xE000EDF0) -- CPU_ReadMem(4 bytes @ 0xE000EDF0)
 -- CPU_ReadMem(4 bytes @ 0xE000EDF0) -- CPU_ReadMem(4 bytes @ 0xE000EDF0) -- CPU_ReadMem(4 bytes @ 0xE000EDF0) -- CPU_ReadMem(4 bytes @ 0xE000EDF0) -- CPU_ReadMem(4 bytes @ 0xE000EDF0) -- CPU_ReadMem(4 bytes @ 0xE000EDF0) -- CPU_ReadMem(4 bytes @ 0xE000EDF0) -- CPU_ReadMem(4 bytes @ 0xE000EDF0) -- CPU_ReadMem(4 bytes @ 0xE000EDF0) -- CPU_ReadMem(4 bytes @ 0xE000EDF0) -- CPU_ReadMem(4 bytes @ 0xE000EDF0) -- CPU_ReadMem(4 bytes @ 0xE000EDF0) -- CPU_ReadMem(4 bytes @ 0xE000EDF0)
 -- CPU_ReadMem(4 bytes @ 0xE000EDF0) -- CPU_ReadMem(4 bytes @ 0xE000EDF0) -- CPU_ReadMem(4 bytes @ 0xE000EDF0) -- CPU_ReadMem(4 bytes @ 0xE000EDF0) -- CPU_ReadMem(4 bytes @ 0xE000EDF0) -- CPU_ReadMem(4 bytes @ 0xE000EDF0) -- CPU_ReadMem(4 bytes @ 0xE000EDF0) -- CPU_ReadMem(4 bytes @ 0xE000EDF0) -- CPU_ReadMem(4 bytes @ 0xE000EDF0) -- CPU_ReadMem(4 bytes @ 0xE000EDF0) -- CPU_ReadMem(4 bytes @ 0xE000EDF0) -- CPU_ReadMem(4 bytes @ 0xE000EDF0) -- CPU_ReadMem(4 bytes @ 0xE000EDF0)
 -- CPU_ReadMem(4 bytes @ 0xE000EDF0) -- CPU_ReadMem(4 bytes @ 0xE000EDF0) -- CPU_ReadMem(4 bytes @ 0xE000EDF0) -- CPU_ReadMem(4 bytes @ 0xE000EDF0) -- CPU_ReadMem(4 bytes @ 0xE000EDF0) -- CPU_ReadMem(4 bytes @ 0xE000EDF0) -- CPU_ReadMem(4 bytes @ 0xE000EDF0) -- CPU_ReadMem(4 bytes @ 0xE000EDF0) -- CPU_ReadMem(4 bytes @ 0xE000EDF0) -- CPU_ReadMem(4 bytes @ 0xE000EDF0) -- CPU_ReadMem(4 bytes @ 0xE000EDF0) -- CPU_ReadMem(4 bytes @ 0xE000EDF0) -- CPU_ReadMem(4 bytes @ 0xE000EDF0)
 -- CPU_ReadMem(4 bytes @ 0xE000EDF0) -- CPU_ReadMem(4 bytes @ 0xE000EDF0) -- CPU_ReadMem(4 bytes @ 0xE000EDF0) -- CPU_ReadMem(4 bytes @ 0xE000EDF0) -- CPU_ReadMem(4 bytes @ 0xE000EDF0) -- CPU_ReadMem(4 bytes @ 0xE000EDF0) -- CPU_ReadMem(4 bytes @ 0xE000EDF0) -- CPU_ReadMem(4 bytes @ 0xE000EDF0) -- CPU_ReadMem(4 bytes @ 0xE000EDF0) -- CPU_ReadMem(4 bytes @ 0xE000EDF0) -- CPU_ReadMem(4 bytes @ 0xE000EDF0) -- CPU_ReadMem(4 bytes @ 0xE000EDF0) -- CPU_ReadMem(4 bytes @ 0xE000EDF0)
 -- CPU_ReadMem(4 bytes @ 0xE000EDF0) -- CPU_ReadMem(4 bytes @ 0xE000EDF0) -- CPU_ReadMem(4 bytes @ 0xE000EDF0) -- CPU_ReadMem(4 bytes @ 0xE000EDF0) -- CPU_ReadMem(4 bytes @ 0xE000EDF0) -- CPU_ReadMem(4 bytes @ 0xE000EDF0) -- CPU_ReadMem(4 bytes @ 0xE000EDF0) -- CPU_ReadMem(4 bytes @ 0xE000EDF0) -- CPU_ReadMem(4 bytes @ 0xE000EDF0) -- CPU_ReadMem(4 bytes @ 0xE000EDF0) -- CPU_ReadMem(4 bytes @ 0xE000EDF0) -- CPU_ReadMem(4 bytes @ 0xE000EDF0) -- CPU_ReadMem(4 bytes @ 0xE000EDF0)
 -- CPU_ReadMem(4 bytes @ 0xE000EDF0) -- CPU_ReadMem(4 bytes @ 0xE000EDF0) -- CPU_ReadMem(4 bytes @ 0xE000EDF0) -- CPU_ReadMem(4 bytes @ 0xE000EDF0) -- CPU_ReadMem(4 bytes @ 0xE000EDF0) -- CPU_ReadMem(4 bytes @ 0xE000EDF0) -- CPU_ReadMem(4 bytes @ 0xE000EDF0) -- CPU_ReadMem(4 bytes @ 0xE000EDF0) -- CPU_ReadMem(4 bytes @ 0xE000EDF0) -- CPU_ReadMem(4 bytes @ 0xE000EDF0) -- CPU_ReadMem(4 bytes @ 0xE000EDF0) -- CPU_ReadMem(4 bytes @ 0xE000EDF0) -- CPU_ReadMem(4 bytes @ 0xE000EDF0)
 -- CPU_ReadMem(4 bytes @ 0xE000EDF0) -- CPU_ReadMem(4 bytes @ 0xE000EDF0) -- CPU_ReadMem(4 bytes @ 0xE000EDF0) -- CPU_ReadMem(4 bytes @ 0xE000EDF0) -- CPU_ReadMem(4 bytes @ 0xE000EDF0) -- CPU_ReadMem(4 bytes @ 0xE000EDF0) -- CPU_ReadMem(4 bytes @ 0xE000EDF0) -- CPU_ReadMem(4 bytes @ 0xE000EDF0) -- CPU_ReadMem(4 bytes @ 0xE000EDF0) -- CPU_ReadMem(4 bytes @ 0xE000EDF0) -- CPU_ReadMem(4 bytes @ 0xE000EDF0) -- CPU_ReadMem(4 bytes @ 0xE000EDF0) -- CPU_ReadMem(4 bytes @ 0xE000EDF0)
 -- CPU_ReadMem(4 bytes @ 0xE000EDF0) -- CPU_ReadMem(4 bytes @ 0xE000EDF0) -- CPU_ReadMem(4 bytes @ 0xE000EDF0) -- CPU_ReadMem(4 bytes @ 0xE000EDF0) -- CPU_ReadMem(4 bytes @ 0xE000EDF0) -- CPU_ReadMem(4 bytes @ 0xE000EDF0) -- CPU_ReadMem(4 bytes @ 0xE000EDF0) -- CPU_ReadMem(4 bytes @ 0xE000EDF0) -- CPU_ReadMem(4 bytes @ 0xE000EDF0) -- CPU_ReadMem(4 bytes @ 0xE000EDF0) -- CPU_ReadMem(4 bytes @ 0xE000EDF0) -- CPU_ReadMem(4 bytes @ 0xE000EDF0) -- CPU_ReadMem(4 bytes @ 0xE000EDF0)
 -- CPU_ReadMem(4 bytes @ 0xE000EDF0) -- CPU_ReadMem(4 bytes @ 0xE000EDF0) -- CPU_ReadMem(4 bytes @ 0xE000EDF0) -- CPU_ReadMem(4 bytes @ 0xE000EDF0) -- CPU_ReadMem(4 bytes @ 0xE000EDF0) -- CPU_ReadMem(4 bytes @ 0xE000EDF0) -- CPU_ReadMem(4 bytes @ 0xE000EDF0) -- CPU_ReadMem(4 bytes @ 0xE000EDF0) -- CPU_ReadMem(4 bytes @ 0xE000EDF0) -- CPU_ReadMem(4 bytes @ 0xE000EDF0) -- CPU_ReadMem(4 bytes @ 0xE000EDF0) -- CPU_ReadMem(4 bytes @ 0xE000EDF0) -- CPU_ReadMem(4 bytes @ 0xE000EDF0)
 -- CPU_ReadMem(4 bytes @ 0xE000EDF0) -- CPU_ReadMem(4 bytes @ 0xE000EDF0) -- CPU_ReadMem(4 bytes @ 0xE000EDF0) -- CPU_ReadMem(4 bytes @ 0xE000EDF0) -- CPU_ReadMem(4 bytes @ 0xE000EDF0) -- CPU_ReadMem(4 bytes @ 0xE000EDF0) -- CPU_ReadMem(4 bytes @ 0xE000EDF0) -- CPU_ReadMem(4 bytes @ 0xE000EDF0) -- CPU_ReadMem(4 bytes @ 0xE000EDF0) -- CPU_ReadMem(4 bytes @ 0xE000EDF0) -- CPU_ReadMem(4 bytes @ 0xE000EDF0) -- CPU_ReadMem(4 bytes @ 0xE000EDF0) -- CPU_ReadMem(4 bytes @ 0xE000EDF0)
 -- CPU_ReadMem(4 bytes @ 0xE000EDF0) -- CPU_ReadMem(4 bytes @ 0xE000EDF0) -- CPU_ReadMem(4 bytes @ 0xE000EDF0) -- CPU_ReadMem(4 bytes @ 0xE000EDF0) -- CPU_ReadMem(4 bytes @ 0xE000EDF0) -- CPU_ReadMem(4 bytes @ 0xE000EDF0) -- CPU_ReadMem(4 bytes @ 0xE000EDF0) -- CPU_ReadMem(4 bytes @ 0xE000EDF0) -- CPU_ReadMem(4 bytes @ 0xE000EDF0) -- CPU_ReadMem(4 bytes @ 0xE000EDF0) -- CPU_ReadMem(4 bytes @ 0xE000EDF0) -- CPU_ReadMem(4 bytes @ 0xE000EDF0) -- CPU_ReadMem(4 bytes @ 0xE000EDF0)
 -- CPU_ReadMem(4 bytes @ 0xE000EDF0) -- CPU_ReadMem(4 bytes @ 0xE000EDF0) -- CPU_ReadMem(4 bytes @ 0xE000EDF0) -- CPU_ReadMem(4 bytes @ 0xE000EDF0) -- CPU_ReadMem(4 bytes @ 0xE000EDF0) -- CPU_ReadMem(4 bytes @ 0xE000EDF0) -- CPU_ReadMem(4 bytes @ 0xE000EDF0) -- CPU_ReadMem(4 bytes @ 0xE000EDF0) -- CPU_ReadMem(4 bytes @ 0xE000EDF0) -- CPU_ReadMem(4 bytes @ 0xE000EDF0) -- CPU_ReadMem(4 bytes @ 0xE000EDF0) -- CPU_ReadMem(4 bytes @ 0xE000EDF0) -- CPU_ReadMem(4 bytes @ 0xE000EDF0)
 -- CPU_ReadMem(4 bytes @ 0xE000EDF0) -- CPU_ReadMem(4 bytes @ 0xE000EDF0) -- CPU_ReadMem(4 bytes @ 0xE000EDF0) -- CPU_ReadMem(4 bytes @ 0xE000EDF0) -- CPU_ReadMem(4 bytes @ 0xE000EDF0) -- CPU_ReadMem(4 bytes @ 0xE000EDF0) -- CPU_ReadMem(4 bytes @ 0xE000EDF0) -- CPU_ReadMem(4 bytes @ 0xE000EDF0) -- CPU_ReadMem(4 bytes @ 0xE000EDF0) -- CPU_ReadMem(4 bytes @ 0xE000EDF0) -- CPU_ReadMem(4 bytes @ 0xE000EDF0) -- CPU_ReadMem(4 bytes @ 0xE000EDF0) -- CPU_ReadMem(4 bytes @ 0xE000EDF0)
 -- CPU_ReadMem(4 bytes @ 0xE000EDF0) -- CPU_ReadMem(4 bytes @ 0xE000EDF0) -- CPU_ReadMem(4 bytes @ 0xE000EDF0) -- CPU_ReadMem(4 bytes @ 0xE000EDF0) -- CPU_ReadMem(4 bytes @ 0xE000EDF0) -- CPU_ReadMem(4 bytes @ 0xE000EDF0) -- CPU_ReadMem(4 bytes @ 0xE000EDF0) -- CPU_ReadMem(4 bytes @ 0xE000EDF0) -- CPU_ReadMem(4 bytes @ 0xE000EDF0) -- CPU_ReadMem(4 bytes @ 0xE000EDF0) -- CPU_ReadMem(4 bytes @ 0xE000EDF0) -- CPU_ReadMem(4 bytes @ 0xE000EDF0) -- CPU_ReadMem(4 bytes @ 0xE000EDF0)
 -- CPU_ReadMem(4 bytes @ 0xE000EDF0) -- CPU_ReadMem(4 bytes @ 0xE000EDF0) -- CPU_ReadMem(4 bytes @ 0xE000EDF0) -- CPU_ReadMem(4 bytes @ 0xE000EDF0) -- CPU_ReadMem(4 bytes @ 0xE000EDF0) -- CPU_ReadMem(4 bytes @ 0xE000EDF0) -- CPU_ReadMem(4 bytes @ 0xE000EDF0) -- CPU_ReadMem(4 bytes @ 0xE000EDF0) -- CPU_ReadMem(4 bytes @ 0xE000EDF0) -- CPU_ReadMem(4 bytes @ 0xE000EDF0) -- CPU_ReadMem(4 bytes @ 0xE000EDF0) -- CPU_ReadMem(4 bytes @ 0xE000EDF0) -- CPU_ReadMem(4 bytes @ 0xE000EDF0)
 -- CPU_ReadMem(4 bytes @ 0xE000EDF0) -- CPU_ReadMem(4 bytes @ 0xE000EDF0) -- CPU_ReadMem(4 bytes @ 0xE000EDF0) -- CPU_ReadMem(4 bytes @ 0xE000EDF0) -- CPU_ReadMem(4 bytes @ 0xE000EDF0) -- CPU_ReadMem(4 bytes @ 0xE000EDF0) -- CPU_ReadMem(4 bytes @ 0xE000EDF0) -- CPU_ReadMem(4 bytes @ 0xE000EDF0) -- CPU_ReadMem(4 bytes @ 0xE000EDF0) -- CPU_ReadMem(4 bytes @ 0xE000EDF0) -- CPU_ReadMem(4 bytes @ 0xE000EDF0) -- CPU_ReadMem(4 bytes @ 0xE000EDF0) -- CPU_ReadMem(4 bytes @ 0xE000EDF0)
 -- CPU_ReadMem(4 bytes @ 0xE000EDF0) -- CPU_ReadMem(4 bytes @ 0xE000EDF0) -- CPU_ReadMem(4 bytes @ 0xE000EDF0) -- CPU_ReadMem(4 bytes @ 0xE000EDF0) -- CPU_ReadMem(4 bytes @ 0xE000EDF0) -- CPU_ReadMem(4 bytes @ 0xE000EDF0) -- CPU_ReadMem(4 bytes @ 0xE000EDF0) -- CPU_ReadMem(4 bytes @ 0xE000EDF0) -- CPU_ReadMem(4 bytes @ 0xE000EDF0) -- CPU_ReadMem(4 bytes @ 0xE000EDF0) -- CPU_ReadMem(4 bytes @ 0xE000EDF0) -- CPU_ReadMem(4 bytes @ 0xE000EDF0) -- CPU_ReadMem(4 bytes @ 0xE000EDF0)
 -- CPU_ReadMem(4 bytes @ 0xE000EDF0) -- CPU_ReadMem(4 bytes @ 0xE000EDF0) -- CPU_ReadMem(4 bytes @ 0xE000EDF0) -- CPU_ReadMem(4 bytes @ 0xE000EDF0) -- CPU_ReadMem(4 bytes @ 0xE000EDF0) -- CPU_ReadMem(4 bytes @ 0xE000EDF0) -- CPU_ReadMem(4 bytes @ 0xE000EDF0) -- CPU_ReadMem(4 bytes @ 0xE000EDF0) -- CPU_ReadMem(4 bytes @ 0xE000EDF0) -- CPU_ReadMem(4 bytes @ 0xE000EDF0) -- CPU_ReadMem(4 bytes @ 0xE000EDF0) -- CPU_ReadMem(4 bytes @ 0xE000EDF0) -- CPU_ReadMem(4 bytes @ 0xE000EDF0)
 -- CPU_ReadMem(4 bytes @ 0xE000EDF0) -- CPU_ReadMem(4 bytes @ 0xE000EDF0) -- CPU_ReadMem(4 bytes @ 0xE000EDF0) -- CPU_ReadMem(4 bytes @ 0xE000EDF0) -- CPU_ReadMem(4 bytes @ 0xE000EDF0) -- CPU_ReadMem(4 bytes @ 0xE000EDF0) -- CPU_ReadMem(4 bytes @ 0xE000EDF0) -- CPU_ReadMem(4 bytes @ 0xE000EDF0) -- CPU_ReadMem(4 bytes @ 0xE000EDF0) -- CPU_ReadMem(4 bytes @ 0xE000EDF0) -- CPU_ReadMem(4 bytes @ 0xE000EDF0) -- CPU_ReadMem(4 bytes @ 0xE000EDF0) -- CPU_ReadMem(4 bytes @ 0xE000EDF0)
 -- CPU_ReadMem(4 bytes @ 0xE000EDF0) -- CPU_ReadMem(4 bytes @ 0xE000EDF0) -- CPU_ReadMem(4 bytes @ 0xE000EDF0) -- CPU_ReadMem(4 bytes @ 0xE000EDF0) -- CPU_ReadMem(4 bytes @ 0xE000EDF0) -- CPU_ReadMem(4 bytes @ 0xE000EDF0) -- CPU_ReadMem(4 bytes @ 0xE000EDF0) -- CPU_ReadMem(4 bytes @ 0xE000EDF0) -- CPU_ReadMem(4 bytes @ 0xE000EDF0) -- CPU_ReadMem(4 bytes @ 0xE000EDF0) -- CPU_ReadMem(4 bytes @ 0xE000EDF0) -- CPU_ReadMem(4 bytes @ 0xE000EDF0) -- CPU_ReadMem(4 bytes @ 0xE000EDF0)
 -- CPU_ReadMem(4 bytes @ 0xE000EDF0) -- CPU_ReadMem(4 bytes @ 0xE000EDF0) -- CPU_ReadMem(4 bytes @ 0xE000EDF0) -- CPU_ReadMem(4 bytes @ 0xE000EDF0) -- CPU_ReadMem(4 bytes @ 0xE000EDF0) -- CPU_ReadMem(4 bytes @ 0xE000EDF0) -- CPU_ReadMem(4 bytes @ 0xE000EDF0) -- CPU_ReadMem(4 bytes @ 0xE000EDF0) -- CPU_ReadMem(4 bytes @ 0xE000EDF0) -- CPU_ReadMem(4 bytes @ 0xE000EDF0) -- CPU_ReadMem(4 bytes @ 0xE000EDF0) -- CPU_ReadMem(4 bytes @ 0xE000EDF0) -- CPU_ReadMem(4 bytes @ 0xE000EDF0)
 -- CPU_ReadMem(4 bytes @ 0xE000EDF0) -- CPU_ReadMem(4 bytes @ 0xE000EDF0) -- CPU_ReadMem(4 bytes @ 0xE000EDF0) -- CPU_ReadMem(4 bytes @ 0xE000EDF0) -- CPU_ReadMem(4 bytes @ 0xE000EDF0) -- CPU_ReadMem(4 bytes @ 0xE000EDF0) -- CPU_ReadMem(4 bytes @ 0xE000EDF0) -- CPU_ReadMem(4 bytes @ 0xE000EDF0) -- CPU_ReadMem(4 bytes @ 0xE000EDF0) -- CPU_ReadMem(4 bytes @ 0xE000EDF0) -- CPU_ReadMem(4 bytes @ 0xE000EDF0) -- CPU_ReadMem(4 bytes @ 0xE000EDF0) -- CPU_ReadMem(4 bytes @ 0xE000EDF0)
 -- CPU_ReadMem(4 bytes @ 0xE000EDF0) -- CPU_ReadMem(4 bytes @ 0xE000EDF0) -- CPU_ReadMem(4 bytes @ 0xE000EDF0) -- CPU_ReadMem(4 bytes @ 0xE000EDF0) -- CPU_ReadMem(4 bytes @ 0xE000EDF0) -- CPU_ReadMem(4 bytes @ 0xE000EDF0) -- CPU_ReadMem(4 bytes @ 0xE000EDF0) -- CPU_ReadMem(4 bytes @ 0xE000EDF0) -- CPU_ReadMem(4 bytes @ 0xE000EDF0) -- CPU_ReadMem(4 bytes @ 0xE000EDF0) -- CPU_ReadMem(4 bytes @ 0xE000EDF0) -- CPU_ReadMem(4 bytes @ 0xE000EDF0) -- CPU_ReadMem(4 bytes @ 0xE000EDF0)
 -- CPU_ReadMem(4 bytes @ 0xE000EDF0) -- CPU_ReadMem(4 bytes @ 0xE000EDF0) -- CPU_ReadMem(4 bytes @ 0xE000EDF0) -- CPU_ReadMem(4 bytes @ 0xE000EDF0) -- CPU_ReadMem(4 bytes @ 0xE000EDF0) -- CPU_ReadMem(4 bytes @ 0xE000EDF0) -- CPU_ReadMem(4 bytes @ 0xE000EDF0) -- CPU_ReadMem(4 bytes @ 0xE000EDF0) -- CPU_ReadMem(4 bytes @ 0xE000EDF0) -- CPU_ReadMem(4 bytes @ 0xE000EDF0) -- CPU_ReadMem(4 bytes @ 0xE000EDF0) -- CPU_ReadMem(4 bytes @ 0xE000EDF0) -- CPU_ReadMem(4 bytes @ 0xE000EDF0)
 -- CPU_ReadMem(4 bytes @ 0xE000EDF0) -- CPU_ReadMem(4 bytes @ 0xE000EDF0) -- CPU_ReadMem(4 bytes @ 0xE000EDF0) -- CPU_ReadMem(4 bytes @ 0xE000EDF0) -- CPU_ReadMem(4 bytes @ 0xE000EDF0) -- CPU_ReadMem(4 bytes @ 0xE000EDF0) -- CPU_ReadMem(4 bytes @ 0xE000EDF0) -- CPU_ReadMem(4 bytes @ 0xE000EDF0) -- CPU_ReadMem(4 bytes @ 0xE000EDF0) -- CPU_ReadMem(4 bytes @ 0xE000EDF0) -- CPU_ReadMem(4 bytes @ 0xE000EDF0) -- CPU_ReadMem(4 bytes @ 0xE000EDF0) -- CPU_ReadMem(4 bytes @ 0xE000EDF0)
 -- CPU_ReadMem(4 bytes @ 0xE000EDF0) -- CPU_ReadMem(4 bytes @ 0xE000EDF0) -- CPU_ReadMem(4 bytes @ 0xE000EDF0) -- CPU_ReadMem(4 bytes @ 0xE000EDF0) -- CPU_ReadMem(4 bytes @ 0xE000EDF0) -- CPU_ReadMem(4 bytes @ 0xE000EDF0) -- CPU_ReadMem(4 bytes @ 0xE000EDF0) -- CPU_ReadMem(4 bytes @ 0xE000EDF0) -- CPU_ReadMem(4 bytes @ 0xE000EDF0) -- CPU_ReadMem(4 bytes @ 0xE000EDF0) -- CPU_ReadMem(4 bytes @ 0xE000EDF0) -- CPU_ReadMem(4 bytes @ 0xE000EDF0) -- CPU_ReadMem(4 bytes @ 0xE000EDF0)
 -- CPU_ReadMem(4 bytes @ 0xE000EDF0) -- CPU_ReadMem(4 bytes @ 0xE000EDF0) -- CPU_ReadMem(4 bytes @ 0xE000EDF0) -- CPU_ReadMem(4 bytes @ 0xE000EDF0) -- CPU_ReadMem(4 bytes @ 0xE000EDF0) -- CPU_ReadMem(4 bytes @ 0xE000EDF0) -- CPU_ReadMem(4 bytes @ 0xE000EDF0) -- CPU_ReadMem(4 bytes @ 0xE000EDF0) -- CPU_ReadMem(4 bytes @ 0xE000EDF0) -- CPU_ReadMem(4 bytes @ 0xE000EDF0) -- CPU_ReadMem(4 bytes @ 0xE000EDF0) -- CPU_ReadMem(4 bytes @ 0xE000EDF0) -- CPU_ReadMem(4 bytes @ 0xE000EDF0)
Reset: CPU may have not been reset (DHCSR.S_RESET_ST never gets set).Reset: Using fallback: Reset pin. -- CPU is running -- CPU_WriteMem(4 bytes @ 0xE000EDF0) -- CPU is running -- CPU_WriteMem(4 bytes @ 0xE000EDFC)Reset: Halt core after reset via DEMCR.VC_CORERESET.Reset: Reset device via reset pin -- CPU_WriteMem(4 bytes @ 0xE000EDFC) -- CPU_ReadMem(4 bytes @ 0xE000EDF0) -- CPU_WriteMem(4 bytes @ 0xE0002000) -- CPU_ReadMem(4 bytes @ 0xE000EDFC) -- CPU_ReadMem(4 bytes @ 0xE0001000)
 -- CPU_WriteMem(4 bytes @ 0xE0001000) (0489ms, 139330ms total)
T5514 41664:163 JLINK_Halt()  returns 0x00 (0000ms, 139330ms total)
T5514 41664:163 JLINK_ReadMemU32(0xE000EDF0, 0x0001 Items, ...) -- CPU_ReadMem(4 bytes @ 0xE000EDF0) - Data: 03 00 03 00  returns 1 (0001ms, 139331ms total)
T5514 41664:164 JLINK_WriteU32(0xE000EDF0, 0xA05F0003) -- CPU_WriteMem(4 bytes @ 0xE000EDF0)  returns 0 (0001ms, 139332ms total)
T5514 41664:165 JLINK_WriteU32(0xE000EDFC, 0x01000000) -- CPU_WriteMem(4 bytes @ 0xE000EDFC)  returns 0 (0000ms, 139332ms total)
T5514 41664:182 JLINK_GetHWStatus(...)  returns 0x00 (0001ms, 139333ms total)
T5514 41664:197 JLINK_GetNumBPUnits(Type = 0xFFFFFF00)  returns 0x04 (0000ms, 139333ms total)
T5514 41664:197 JLINK_GetNumBPUnits(Type = 0xF0)  returns 0x2000 (0000ms, 139333ms total)
T5514 41664:197 JLINK_GetNumWPUnits()  returns 0x02 (0000ms, 139333ms total)
T5514 41664:209 JLINK_GetSpeed()  returns 0x7D0 (0000ms, 139333ms total)
T5514 41664:220 JLINK_ReadMemU32(0xE000E004, 0x0001 Items, ...) -- CPU_ReadMem(4 bytes @ 0xE000E004) - Data: 00 00 00 00  returns 1 (0000ms, 139333ms total)
T5514 41664:220 JLINK_Halt()  returns 0x00 (0000ms, 139333ms total)
T5514 41664:220 JLINK_IsHalted()  returns TRUE (0000ms, 139333ms total)
T5514 41664:224 JLINK_WriteMem(0x10000000, 0x04B4 Bytes, ...) - Data: 00 BE 0A E0 0D 78 2D 06 68 40 08 24 40 00 00 D3 ... -- CPU_WriteMem(1204 bytes @ 0x10000000)  returns 0x4B4 (0012ms, 139345ms total)
T5514 41664:236 JLINK_WriteReg(R0, 0x10000000)  returns 0x00 (0000ms, 139345ms total)
T5514 41664:236 JLINK_WriteReg(R1, 0x00B71B00)  returns 0x00 (0000ms, 139345ms total)
T5514 41664:236 JLINK_WriteReg(R2, 0x00000001)  returns 0x00 (0000ms, 139345ms total)
T5514 41664:236 JLINK_WriteReg(R3, 0x00000000)  returns 0x00 (0000ms, 139345ms total)
T5514 41664:236 JLINK_WriteReg(R4, 0x00000000)  returns 0x00 (0000ms, 139345ms total)
T5514 41664:236 JLINK_WriteReg(R5, 0x00000000)  returns 0x00 (0000ms, 139345ms total)
T5514 41664:236 JLINK_WriteReg(R6, 0x00000000)  returns 0x00 (0000ms, 139345ms total)
T5514 41664:236 JLINK_WriteReg(R7, 0x00000000)  returns 0x00 (0000ms, 139345ms total)
T5514 41664:236 JLINK_WriteReg(R8, 0x00000000)  returns 0x00 (0000ms, 139345ms total)
T5514 41664:236 JLINK_WriteReg(R9, 0x100004A8)  returns 0x00 (0000ms, 139345ms total)
T5514 41664:236 JLINK_WriteReg(R10, 0x00000000)  returns 0x00 (0000ms, 139345ms total)
T5514 41664:236 JLINK_WriteReg(R11, 0x00000000)  returns 0x00 (0000ms, 139345ms total)
T5514 41664:236 JLINK_WriteReg(R12, 0x00000000)  returns 0x00 (0000ms, 139345ms total)
T5514 41664:236 JLINK_WriteReg(R13 (SP), 0x10001000)  returns 0x00 (0000ms, 139345ms total)
T5514 41664:236 JLINK_WriteReg(R14, 0x10000001)  returns 0x00 (0000ms, 139345ms total)
T5514 41664:236 JLINK_WriteReg(R15 (PC), 0x10000038)  returns 0x00 (0000ms, 139345ms total)
T5514 41664:236 JLINK_WriteReg(XPSR, 0x01000000)  returns 0x00 (0000ms, 139345ms total)
T5514 41664:236 JLINK_WriteReg(MSP, 0x10001000)  returns 0x00 (0000ms, 139345ms total)
T5514 41664:236 JLINK_WriteReg(PSP, 0x10001000)  returns 0x00 (0000ms, 139345ms total)
T5514 41664:236 JLINK_WriteReg(CFBP, 0x00000000)  returns 0x00 (0000ms, 139345ms total)
T5514 41664:236 JLINK_SetBPEx(Addr = 0x10000000, Type = 0xFFFFFFF2)  returns 0x00000001 (0001ms, 139346ms total)
T5514 41664:237 JLINK_Go() -- CPU_WriteMem(4 bytes @ 0xE0002000) -- CPU_ReadMem(4 bytes @ 0xE0001000) -- CPU_WriteMem(4 bytes @ 0xE0001000) -- CPU_WriteMem(4 bytes @ 0xE0002008) -- CPU_WriteMem(4 bytes @ 0xE000200C) -- CPU_WriteMem(4 bytes @ 0xE0002010) -- CPU_WriteMem(4 bytes @ 0xE0002014) -- CPU_WriteMem(4 bytes @ 0xE0001004) (0008ms, 139354ms total)
T5514 41664:245 JLINK_IsHalted()  returns TRUE (0004ms, 139358ms total)
T5514 41664:249 JLINK_ReadReg(R15 (PC))  returns 0x10000000 (0000ms, 139354ms total)
T5514 41664:249 JLINK_ClrBPEx(BPHandle = 0x00000001)  returns 0x00 (0000ms, 139354ms total)
T5514 41664:249 JLINK_ReadReg(R0)  returns 0x00000000 (0000ms, 139354ms total)
T5514 41664:250 JLINK_WriteReg(R0, 0x10000000)  returns 0x00 (0000ms, 139354ms total)
T5514 41664:250 JLINK_WriteReg(R1, 0x00001000)  returns 0x00 (0000ms, 139354ms total)
T5514 41664:250 JLINK_WriteReg(R2, 0x000000FF)  returns 0x00 (0000ms, 139354ms total)
T5514 41664:250 JLINK_WriteReg(R3, 0x00000000)  returns 0x00 (0000ms, 139354ms total)
T5514 41664:250 JLINK_WriteReg(R4, 0x00000000)  returns 0x00 (0000ms, 139354ms total)
T5514 41664:250 JLINK_WriteReg(R5, 0x00000000)  returns 0x00 (0000ms, 139354ms total)
T5514 41664:250 JLINK_WriteReg(R6, 0x00000000)  returns 0x00 (0000ms, 139354ms total)
T5514 41664:250 JLINK_WriteReg(R7, 0x00000000)  returns 0x00 (0000ms, 139354ms total)
T5514 41664:250 JLINK_WriteReg(R8, 0x00000000)  returns 0x00 (0000ms, 139354ms total)
T5514 41664:250 JLINK_WriteReg(R9, 0x100004A8)  returns 0x00 (0000ms, 139354ms total)
T5514 41664:250 JLINK_WriteReg(R10, 0x00000000)  returns 0x00 (0000ms, 139354ms total)
T5514 41664:250 JLINK_WriteReg(R11, 0x00000000)  returns 0x00 (0001ms, 139355ms total)
T5514 41664:251 JLINK_WriteReg(R12, 0x00000000)  returns 0x00 (0000ms, 139355ms total)
T5514 41664:251 JLINK_WriteReg(R13 (SP), 0x10001000)  returns 0x00 (0000ms, 139355ms total)
T5514 41664:251 JLINK_WriteReg(R14, 0x10000001)  returns 0x00 (0000ms, 139355ms total)
T5514 41664:251 JLINK_WriteReg(R15 (PC), 0x10000020)  returns 0x00 (0000ms, 139355ms total)
T5514 41664:251 JLINK_WriteReg(XPSR, 0x01000000)  returns 0x00 (0000ms, 139355ms total)
T5514 41664:251 JLINK_WriteReg(MSP, 0x10001000)  returns 0x00 (0000ms, 139355ms total)
T5514 41664:251 JLINK_WriteReg(PSP, 0x10001000)  returns 0x00 (0000ms, 139355ms total)
T5514 41664:251 JLINK_WriteReg(CFBP, 0x00000000)  returns 0x00 (0000ms, 139355ms total)
T5514 41664:251 JLINK_SetBPEx(Addr = 0x10000000, Type = 0xFFFFFFF2)  returns 0x00000002 (0000ms, 139355ms total)
T5514 41664:251 JLINK_Go() -- CPU_WriteMem(4 bytes @ 0xE0002000) -- CPU_ReadMem(4 bytes @ 0xE0001000) -- CPU_WriteMem(4 bytes @ 0xE0001000) (0005ms, 139360ms total)
T5514 41664:256 JLINK_IsHalted()  returns TRUE (0005ms, 139365ms total)
T5514 41664:261 JLINK_ReadReg(R15 (PC))  returns 0x10000000 (0000ms, 139360ms total)
T5514 41664:261 JLINK_ClrBPEx(BPHandle = 0x00000002)  returns 0x00 (0000ms, 139360ms total)
T5514 41664:261 JLINK_ReadReg(R0)  returns 0x00000001 (0000ms, 139360ms total)
T5514 41664:261 JLINK_WriteReg(R0, 0x10000000)  returns 0x00 (0000ms, 139360ms total)
T5514 41664:261 JLINK_WriteReg(R1, 0x00001000)  returns 0x00 (0000ms, 139360ms total)
T5514 41664:261 JLINK_WriteReg(R2, 0x000000FF)  returns 0x00 (0000ms, 139360ms total)
T5514 41664:261 JLINK_WriteReg(R3, 0x00000000)  returns 0x00 (0000ms, 139360ms total)
T5514 41664:261 JLINK_WriteReg(R4, 0x00000000)  returns 0x00 (0000ms, 139360ms total)
T5514 41664:261 JLINK_WriteReg(R5, 0x00000000)  returns 0x00 (0000ms, 139360ms total)
T5514 41664:261 JLINK_WriteReg(R6, 0x00000000)  returns 0x00 (0000ms, 139360ms total)
T5514 41664:261 JLINK_WriteReg(R7, 0x00000000)  returns 0x00 (0000ms, 139360ms total)
T5514 41664:261 JLINK_WriteReg(R8, 0x00000000)  returns 0x00 (0000ms, 139360ms total)
T5514 41664:261 JLINK_WriteReg(R9, 0x100004A8)  returns 0x00 (0000ms, 139360ms total)
T5514 41664:261 JLINK_WriteReg(R10, 0x00000000)  returns 0x00 (0000ms, 139360ms total)
T5514 41664:261 JLINK_WriteReg(R11, 0x00000000)  returns 0x00 (0000ms, 139360ms total)
T5514 41664:261 JLINK_WriteReg(R12, 0x00000000)  returns 0x00 (0000ms, 139360ms total)
T5514 41664:262 JLINK_WriteReg(R13 (SP), 0x10001000)  returns 0x00 (0000ms, 139361ms total)
T5514 41664:262 JLINK_WriteReg(R14, 0x10000001)  returns 0x00 (0000ms, 139361ms total)
T5514 41664:262 JLINK_WriteReg(R15 (PC), 0x100000B0)  returns 0x00 (0000ms, 139361ms total)
T5514 41664:262 JLINK_WriteReg(XPSR, 0x01000000)  returns 0x00 (0000ms, 139361ms total)
T5514 41664:262 JLINK_WriteReg(MSP, 0x10001000)  returns 0x00 (0000ms, 139361ms total)
T5514 41664:262 JLINK_WriteReg(PSP, 0x10001000)  returns 0x00 (0000ms, 139361ms total)
T5514 41664:262 JLINK_WriteReg(CFBP, 0x00000000)  returns 0x00 (0000ms, 139361ms total)
T5514 41664:262 JLINK_SetBPEx(Addr = 0x10000000, Type = 0xFFFFFFF2)  returns 0x00000003 (0000ms, 139361ms total)
T5514 41664:262 JLINK_Go() -- CPU_WriteMem(4 bytes @ 0xE0002000) -- CPU_ReadMem(4 bytes @ 0xE0001000) -- CPU_WriteMem(4 bytes @ 0xE0001000) (0006ms, 139367ms total)
T5514 41664:268 JLINK_IsHalted()  returns TRUE (0004ms, 139371ms total)
T5514 41664:272 JLINK_ReadReg(R15 (PC))  returns 0x10000000 (0000ms, 139367ms total)
T5514 41664:272 JLINK_ClrBPEx(BPHandle = 0x00000003)  returns 0x00 (0000ms, 139367ms total)
T5514 41664:272 JLINK_ReadReg(R0)  returns 0x00000000 (0000ms, 139367ms total)
T5514 41664:273 JLINK_WriteReg(R0, 0x10001000)  returns 0x00 (0000ms, 139367ms total)
T5514 41664:273 JLINK_WriteReg(R1, 0x00001000)  returns 0x00 (0000ms, 139367ms total)
T5514 41664:273 JLINK_WriteReg(R2, 0x000000FF)  returns 0x00 (0000ms, 139367ms total)
T5514 41664:273 JLINK_WriteReg(R3, 0x00000000)  returns 0x00 (0000ms, 139367ms total)
T5514 41664:273 JLINK_WriteReg(R4, 0x00000000)  returns 0x00 (0000ms, 139367ms total)
T5514 41664:273 JLINK_WriteReg(R5, 0x00000000)  returns 0x00 (0000ms, 139367ms total)
T5514 41664:273 JLINK_WriteReg(R6, 0x00000000)  returns 0x00 (0000ms, 139367ms total)
T5514 41664:273 JLINK_WriteReg(R7, 0x00000000)  returns 0x00 (0000ms, 139367ms total)
T5514 41664:273 JLINK_WriteReg(R8, 0x00000000)  returns 0x00 (0000ms, 139367ms total)
T5514 41664:273 JLINK_WriteReg(R9, 0x100004A8)  returns 0x00 (0000ms, 139367ms total)
T5514 41664:273 JLINK_WriteReg(R10, 0x00000000)  returns 0x00 (0000ms, 139367ms total)
T5514 41664:273 JLINK_WriteReg(R11, 0x00000000)  returns 0x00 (0000ms, 139367ms total)
T5514 41664:273 JLINK_WriteReg(R12, 0x00000000)  returns 0x00 (0000ms, 139367ms total)
T5514 41664:273 JLINK_WriteReg(R13 (SP), 0x10001000)  returns 0x00 (0000ms, 139367ms total)
T5514 41664:273 JLINK_WriteReg(R14, 0x10000001)  returns 0x00 (0001ms, 139368ms total)
T5514 41664:274 JLINK_WriteReg(R15 (PC), 0x10000020)  returns 0x00 (0000ms, 139368ms total)
T5514 41664:274 JLINK_WriteReg(XPSR, 0x01000000)  returns 0x00 (0000ms, 139368ms total)
T5514 41664:274 JLINK_WriteReg(MSP, 0x10001000)  returns 0x00 (0000ms, 139368ms total)
T5514 41664:274 JLINK_WriteReg(PSP, 0x10001000)  returns 0x00 (0000ms, 139368ms total)
T5514 41664:274 JLINK_WriteReg(CFBP, 0x00000000)  returns 0x00 (0000ms, 139368ms total)
T5514 41664:274 JLINK_SetBPEx(Addr = 0x10000000, Type = 0xFFFFFFF2)  returns 0x00000004 (0000ms, 139368ms total)
T5514 41664:274 JLINK_Go() -- CPU_WriteMem(4 bytes @ 0xE0002000) -- CPU_ReadMem(4 bytes @ 0xE0001000) -- CPU_WriteMem(4 bytes @ 0xE0001000) (0006ms, 139374ms total)
T5514 41664:280 JLINK_IsHalted()  returns TRUE (0004ms, 139378ms total)
T5514 41664:284 JLINK_ReadReg(R15 (PC))  returns 0x10000000 (0000ms, 139374ms total)
T5514 41664:284 JLINK_ClrBPEx(BPHandle = 0x00000004)  returns 0x00 (0000ms, 139374ms total)
T5514 41664:284 JLINK_ReadReg(R0)  returns 0x00000001 (0000ms, 139374ms total)
T5514 41664:284 JLINK_WriteReg(R0, 0x10001000)  returns 0x00 (0000ms, 139374ms total)
T5514 41664:284 JLINK_WriteReg(R1, 0x00001000)  returns 0x00 (0000ms, 139374ms total)
T5514 41664:284 JLINK_WriteReg(R2, 0x000000FF)  returns 0x00 (0000ms, 139374ms total)
T5514 41664:284 JLINK_WriteReg(R3, 0x00000000)  returns 0x00 (0000ms, 139374ms total)
T5514 41664:284 JLINK_WriteReg(R4, 0x00000000)  returns 0x00 (0000ms, 139374ms total)
T5514 41664:284 JLINK_WriteReg(R5, 0x00000000)  returns 0x00 (0000ms, 139374ms total)
T5514 41664:284 JLINK_WriteReg(R6, 0x00000000)  returns 0x00 (0000ms, 139374ms total)
T5514 41664:284 JLINK_WriteReg(R7, 0x00000000)  returns 0x00 (0000ms, 139374ms total)
T5514 41664:284 JLINK_WriteReg(R8, 0x00000000)  returns 0x00 (0000ms, 139374ms total)
T5514 41664:284 JLINK_WriteReg(R9, 0x100004A8)  returns 0x00 (0000ms, 139374ms total)
T5514 41664:284 JLINK_WriteReg(R10, 0x00000000)  returns 0x00 (0000ms, 139374ms total)
T5514 41664:284 JLINK_WriteReg(R11, 0x00000000)  returns 0x00 (0000ms, 139374ms total)
T5514 41664:284 JLINK_WriteReg(R12, 0x00000000)  returns 0x00 (0000ms, 139374ms total)
T5514 41664:284 JLINK_WriteReg(R13 (SP), 0x10001000)  returns 0x00 (0000ms, 139374ms total)
T5514 41664:284 JLINK_WriteReg(R14, 0x10000001)  returns 0x00 (0000ms, 139374ms total)
T5514 41664:284 JLINK_WriteReg(R15 (PC), 0x100000B0)  returns 0x00 (0000ms, 139374ms total)
T5514 41664:284 JLINK_WriteReg(XPSR, 0x01000000)  returns 0x00 (0000ms, 139374ms total)
T5514 41664:284 JLINK_WriteReg(MSP, 0x10001000)  returns 0x00 (0000ms, 139374ms total)
T5514 41664:284 JLINK_WriteReg(PSP, 0x10001000)  returns 0x00 (0000ms, 139374ms total)
T5514 41664:284 JLINK_WriteReg(CFBP, 0x00000000)  returns 0x00 (0000ms, 139374ms total)
T5514 41664:284 JLINK_SetBPEx(Addr = 0x10000000, Type = 0xFFFFFFF2)  returns 0x00000005 (0000ms, 139374ms total)
T5514 41664:284 JLINK_Go() -- CPU_WriteMem(4 bytes @ 0xE0002000) -- CPU_ReadMem(4 bytes @ 0xE0001000) -- CPU_WriteMem(4 bytes @ 0xE0001000) (0006ms, 139380ms total)
T5514 41664:290 JLINK_IsHalted()  returns TRUE (0005ms, 139385ms total)
T5514 41664:295 JLINK_ReadReg(R15 (PC))  returns 0x10000000 (0000ms, 139380ms total)
T5514 41664:295 JLINK_ClrBPEx(BPHandle = 0x00000005)  returns 0x00 (0000ms, 139380ms total)
T5514 41664:295 JLINK_ReadReg(R0)  returns 0x00000000 (0000ms, 139380ms total)
T5514 41664:296 JLINK_WriteReg(R0, 0x10002000)  returns 0x00 (0000ms, 139380ms total)
T5514 41664:296 JLINK_WriteReg(R1, 0x00001000)  returns 0x00 (0000ms, 139380ms total)
T5514 41664:296 JLINK_WriteReg(R2, 0x000000FF)  returns 0x00 (0000ms, 139380ms total)
T5514 41664:296 JLINK_WriteReg(R3, 0x00000000)  returns 0x00 (0000ms, 139380ms total)
T5514 41664:296 JLINK_WriteReg(R4, 0x00000000)  returns 0x00 (0000ms, 139380ms total)
T5514 41664:296 JLINK_WriteReg(R5, 0x00000000)  returns 0x00 (0000ms, 139380ms total)
T5514 41664:296 JLINK_WriteReg(R6, 0x00000000)  returns 0x00 (0000ms, 139380ms total)
T5514 41664:296 JLINK_WriteReg(R7, 0x00000000)  returns 0x00 (0000ms, 139380ms total)
T5514 41664:296 JLINK_WriteReg(R8, 0x00000000)  returns 0x00 (0000ms, 139380ms total)
T5514 41664:296 JLINK_WriteReg(R9, 0x100004A8)  returns 0x00 (0000ms, 139380ms total)
T5514 41664:296 JLINK_WriteReg(R10, 0x00000000)  returns 0x00 (0000ms, 139380ms total)
T5514 41664:296 JLINK_WriteReg(R11, 0x00000000)  returns 0x00 (0000ms, 139380ms total)
T5514 41664:296 JLINK_WriteReg(R12, 0x00000000)  returns 0x00 (0000ms, 139380ms total)
T5514 41664:296 JLINK_WriteReg(R13 (SP), 0x10001000)  returns 0x00 (0000ms, 139380ms total)
T5514 41664:296 JLINK_WriteReg(R14, 0x10000001)  returns 0x00 (0000ms, 139380ms total)
T5514 41664:296 JLINK_WriteReg(R15 (PC), 0x10000020)  returns 0x00 (0000ms, 139380ms total)
T5514 41664:296 JLINK_WriteReg(XPSR, 0x01000000)  returns 0x00 (0000ms, 139380ms total)
T5514 41664:296 JLINK_WriteReg(MSP, 0x10001000)  returns 0x00 (0000ms, 139380ms total)
T5514 41664:296 JLINK_WriteReg(PSP, 0x10001000)  returns 0x00 (0000ms, 139380ms total)
T5514 41664:296 JLINK_WriteReg(CFBP, 0x00000000)  returns 0x00 (0000ms, 139380ms total)
T5514 41664:296 JLINK_SetBPEx(Addr = 0x10000000, Type = 0xFFFFFFF2)  returns 0x00000006 (0000ms, 139380ms total)
T5514 41664:297 JLINK_Go() -- CPU_WriteMem(4 bytes @ 0xE0002000) -- CPU_ReadMem(4 bytes @ 0xE0001000) -- CPU_WriteMem(4 bytes @ 0xE0001000) (0005ms, 139385ms total)
T5514 41664:302 JLINK_IsHalted()  returns TRUE (0005ms, 139390ms total)
T5514 41664:307 JLINK_ReadReg(R15 (PC))  returns 0x10000000 (0000ms, 139385ms total)
T5514 41664:307 JLINK_ClrBPEx(BPHandle = 0x00000006)  returns 0x00 (0000ms, 139385ms total)
T5514 41664:307 JLINK_ReadReg(R0)  returns 0x00000001 (0000ms, 139385ms total)
T5514 41664:307 JLINK_WriteReg(R0, 0x10002000)  returns 0x00 (0000ms, 139385ms total)
T5514 41664:307 JLINK_WriteReg(R1, 0x00001000)  returns 0x00 (0000ms, 139385ms total)
T5514 41664:307 JLINK_WriteReg(R2, 0x000000FF)  returns 0x00 (0000ms, 139385ms total)
T5514 41664:307 JLINK_WriteReg(R3, 0x00000000)  returns 0x00 (0000ms, 139385ms total)
T5514 41664:307 JLINK_WriteReg(R4, 0x00000000)  returns 0x00 (0000ms, 139385ms total)
T5514 41664:307 JLINK_WriteReg(R5, 0x00000000)  returns 0x00 (0000ms, 139385ms total)
T5514 41664:307 JLINK_WriteReg(R6, 0x00000000)  returns 0x00 (0000ms, 139385ms total)
T5514 41664:307 JLINK_WriteReg(R7, 0x00000000)  returns 0x00 (0000ms, 139385ms total)
T5514 41664:307 JLINK_WriteReg(R8, 0x00000000)  returns 0x00 (0000ms, 139385ms total)
T5514 41664:307 JLINK_WriteReg(R9, 0x100004A8)  returns 0x00 (0000ms, 139385ms total)
T5514 41664:307 JLINK_WriteReg(R10, 0x00000000)  returns 0x00 (0000ms, 139385ms total)
T5514 41664:307 JLINK_WriteReg(R11, 0x00000000)  returns 0x00 (0000ms, 139385ms total)
T5514 41664:307 JLINK_WriteReg(R12, 0x00000000)  returns 0x00 (0000ms, 139385ms total)
T5514 41664:307 JLINK_WriteReg(R13 (SP), 0x10001000)  returns 0x00 (0000ms, 139385ms total)
T5514 41664:307 JLINK_WriteReg(R14, 0x10000001)  returns 0x00 (0000ms, 139385ms total)
T5514 41664:307 JLINK_WriteReg(R15 (PC), 0x100000B0)  returns 0x00 (0000ms, 139385ms total)
T5514 41664:307 JLINK_WriteReg(XPSR, 0x01000000)  returns 0x00 (0000ms, 139385ms total)
T5514 41664:307 JLINK_WriteReg(MSP, 0x10001000)  returns 0x00 (0000ms, 139385ms total)
T5514 41664:307 JLINK_WriteReg(PSP, 0x10001000)  returns 0x00 (0001ms, 139386ms total)
T5514 41664:308 JLINK_WriteReg(CFBP, 0x00000000)  returns 0x00 (0000ms, 139386ms total)
T5514 41664:308 JLINK_SetBPEx(Addr = 0x10000000, Type = 0xFFFFFFF2)  returns 0x00000007 (0000ms, 139386ms total)
T5514 41664:308 JLINK_Go() -- CPU_WriteMem(4 bytes @ 0xE0002000) -- CPU_ReadMem(4 bytes @ 0xE0001000) -- CPU_WriteMem(4 bytes @ 0xE0001000) (0005ms, 139391ms total)
T5514 41664:313 JLINK_IsHalted()  returns TRUE (0005ms, 139396ms total)
T5514 41664:318 JLINK_ReadReg(R15 (PC))  returns 0x10000000 (0000ms, 139391ms total)
T5514 41664:318 JLINK_ClrBPEx(BPHandle = 0x00000007)  returns 0x00 (0000ms, 139391ms total)
T5514 41664:318 JLINK_ReadReg(R0)  returns 0x00000000 (0000ms, 139391ms total)
T5514 41664:319 JLINK_WriteReg(R0, 0x10003000)  returns 0x00 (0000ms, 139391ms total)
T5514 41664:319 JLINK_WriteReg(R1, 0x00001000)  returns 0x00 (0000ms, 139391ms total)
T5514 41664:319 JLINK_WriteReg(R2, 0x000000FF)  returns 0x00 (0000ms, 139391ms total)
T5514 41664:319 JLINK_WriteReg(R3, 0x00000000)  returns 0x00 (0000ms, 139391ms total)
T5514 41664:319 JLINK_WriteReg(R4, 0x00000000)  returns 0x00 (0000ms, 139391ms total)
T5514 41664:319 JLINK_WriteReg(R5, 0x00000000)  returns 0x00 (0000ms, 139391ms total)
T5514 41664:319 JLINK_WriteReg(R6, 0x00000000)  returns 0x00 (0000ms, 139391ms total)
T5514 41664:319 JLINK_WriteReg(R7, 0x00000000)  returns 0x00 (0000ms, 139391ms total)
T5514 41664:319 JLINK_WriteReg(R8, 0x00000000)  returns 0x00 (0000ms, 139391ms total)
T5514 41664:319 JLINK_WriteReg(R9, 0x100004A8)  returns 0x00 (0000ms, 139391ms total)
T5514 41664:319 JLINK_WriteReg(R10, 0x00000000)  returns 0x00 (0000ms, 139391ms total)
T5514 41664:319 JLINK_WriteReg(R11, 0x00000000)  returns 0x00 (0000ms, 139391ms total)
T5514 41664:319 JLINK_WriteReg(R12, 0x00000000)  returns 0x00 (0000ms, 139391ms total)
T5514 41664:319 JLINK_WriteReg(R13 (SP), 0x10001000)  returns 0x00 (0000ms, 139391ms total)
T5514 41664:319 JLINK_WriteReg(R14, 0x10000001)  returns 0x00 (0000ms, 139391ms total)
T5514 41664:319 JLINK_WriteReg(R15 (PC), 0x10000020)  returns 0x00 (0000ms, 139391ms total)
T5514 41664:319 JLINK_WriteReg(XPSR, 0x01000000)  returns 0x00 (0000ms, 139391ms total)
T5514 41664:319 JLINK_WriteReg(MSP, 0x10001000)  returns 0x00 (0000ms, 139391ms total)
T5514 41664:319 JLINK_WriteReg(PSP, 0x10001000)  returns 0x00 (0000ms, 139391ms total)
T5514 41664:319 JLINK_WriteReg(CFBP, 0x00000000)  returns 0x00 (0000ms, 139391ms total)
T5514 41664:319 JLINK_SetBPEx(Addr = 0x10000000, Type = 0xFFFFFFF2)  returns 0x00000008 (0000ms, 139391ms total)
T5514 41664:319 JLINK_Go() -- CPU_WriteMem(4 bytes @ 0xE0002000) -- CPU_ReadMem(4 bytes @ 0xE0001000) -- CPU_WriteMem(4 bytes @ 0xE0001000) (0006ms, 139397ms total)
T5514 41664:325 JLINK_IsHalted()  returns TRUE (0004ms, 139401ms total)
T5514 41664:329 JLINK_ReadReg(R15 (PC))  returns 0x10000000 (0000ms, 139397ms total)
T5514 41664:329 JLINK_ClrBPEx(BPHandle = 0x00000008)  returns 0x00 (0000ms, 139397ms total)
